
TA084 412:123 SEGGER J-Link V6.16a Log File (0000ms, 0137ms total)
TA084 412:123 DLL Compiled: Jun  6 2017 12:42:51 (0000ms, 0137ms total)
TA084 412:123 Logging started @ 2018-04-23 15:30 (0000ms, 0137ms total)
TA084 412:195 JLINK_ExecCommand("Device = ATSAMD10D14AM", ...).   returns 0x00 (0002ms, 0139ms total)
TA084 412:214 JLINK_ExecCommand("ProjectFile = C:\Users\raghu\Documents\Atmel Studio\7.0\Current\HummingBit_SPI_LED_ORB\HummingBit\jlink.config", ...).   returns 0x00 (0004ms, 0143ms total)
TA084 412:288 JLINK_ExecCommand("Device = ATSAMD10D14AM", ...).   returns 0x00 (0001ms, 0144ms total)
TA084 412:289 JLINK_TIF_Select(JLINKARM_TIF_SWD)  returns 0x00 (0001ms, 0145ms total)
TA084 412:290 JLINK_SetSpeed(4000) (0001ms, 0146ms total)
TA084 412:291 JLINK_ResetPullsRESET(OFF) (0000ms, 0146ms total)
TA084 412:291 JLINK_Connect() >0x10B TIF> >0x10F TIF> >0x10B TIF> >0x10F TIF> >0x10B TIF>Found SW-DP with ID 0x0BC11477 >0x0D TIF> >0x28 TIF> >0x0D TIF> >0x28 TIF>SWD speed too high. Reduced from 4000 kHz to 2700 kHz for stability >0x0D TIF> >0x28 TIF> >0x0D TIF> >0x28 TIF> >0x0D TIF> >0x21 TIF> >0x0D TIF> >0x28 TIF> >0x0D TIF> >0x28 TIF> >0x0D TIF> >0x28 TIF> >0x0D TIF> >0x21 TIF> >0x0D TIF> >0x21 TIF> >0x0D TIF> >0x28 TIF> >0x0D TIF> >0x28 TIF> >0x0D TIF> >0x28 TIF> >0x0D TIF> >0x28 TIF> >0x0D TIF>
 >0x28 TIF> >0x0D TIF> >0x28 TIF> >0x0D TIF> >0x21 TIF> >0x0D TIF> >0x21 TIF> >0x0D TIF> >0x28 TIF> >0x0D TIF> >0x28 TIF> >0x10B TIF>Found SW-DP with ID 0x0BC11477 >0x0D TIF> >0x28 TIF> >0x0D TIF> >0x28 TIF> >0x0D TIF> >0x28 TIF> >0x0D TIF> >0x28 TIF> >0x0D TIF> >0x21 TIF> >0x0D TIF> >0x28 TIF>Scanning APs, stopping at first AHB-AP found. >0x0D TIF> >0x28 TIF> >0x0D TIF> >0x21 TIF> >0x0D TIF> >0x21 TIF>AP[0] IDR: 0x04770031 (AHB-AP) >0x0D TIF> >0x28 TIF> >0x0D TIF> >0x21 TIF> >0x0D TIF> >0x21 TIF>
AHB-AP ROM: 0x41003000 (Base addr. of first ROM table) >0x0D TIF> >0x28 TIF> >0x0D TIF> >0x28 TIF> >0x0D TIF> >0x28 TIF> >0x0D TIF> >0x21 TIF> >0x0D TIF> >0x21 TIF> >0x0D TIF> >0x28 TIF> >0x0D TIF> >0x21 TIF> >0x0D TIF> >0x21 TIF>CPUID reg: 0x410CC601. Implementer code: 0x41 (ARM)Found Cortex-M0 r0p1, Little endian. -- CPU_ReadMem(4 bytes @ 0xE000EDF0) -- CPU_ReadMem(4 bytes @ 0xE0002000) -- CPU_ReadMem(4 bytes @ 0xE000EDFC) -- CPU_ReadMem(4 bytes @ 0xE0001000) -- CPU_WriteMem(4 bytes @ 0xE0001000)
CoreSight components:ROMTbl[0] @ 41003000 -- CPU_ReadMem(16 bytes @ 0x41003000) -- CPU_ReadMem(16 bytes @ 0xE00FFFF0) -- CPU_ReadMem(16 bytes @ 0xE00FFFE0)ROMTbl[0][0]: E00FF000, CID: B105100D, PID: 000BB4C0 ROM TableROMTbl[1] @ E00FF000 -- CPU_ReadMem(16 bytes @ 0xE00FF000) -- CPU_ReadMem(16 bytes @ 0xE000EFF0) -- CPU_ReadMem(16 bytes @ 0xE000EFE0)ROMTbl[1][0]: E000E000, CID: B105E00D, PID: 000BB008 SCS -- CPU_ReadMem(16 bytes @ 0xE0001FF0) -- CPU_ReadMem(16 bytes @ 0xE0001FE0)
ROMTbl[1][1]: E0001000, CID: B105E00D, PID: 000BB00A DWT -- CPU_ReadMem(16 bytes @ 0xE0002FF0) -- CPU_ReadMem(16 bytes @ 0xE0002FE0)ROMTbl[1][2]: E0002000, CID: B105E00D, PID: 000BB00B FPB -- CPU_ReadMem(16 bytes @ 0x41006FF0) -- CPU_ReadMem(16 bytes @ 0x41006FE0)ROMTbl[0][1]: 41006000, CID: B105900D, PID: 001BB932 MTB-M0+  returns 0x00 (0133ms, 0279ms total)
TA084 412:424 JLINK_Halt()  returns 0x00 (0003ms, 0282ms total)
TA084 412:429 JLINK_JTAG_GetDeviceID(DeviceIndex = 0)  returns 0x00 (0000ms, 0282ms total)
TA084 412:429 JLINK_ReadMemU32(0x41002018, 0x0001 Items, ...) -- CPU_ReadMem(4 bytes @ 0x41002018) - Data: 00 01 02 10  returns 0x01 (0000ms, 0282ms total)
TAD44 412:438 JLINK_IsHalted()  returns TRUE (0000ms, 0282ms total)
TAD44 412:438 JLINK_GetMOEs(...) -- CPU_ReadMem(4 bytes @ 0xE000ED30)  returns 0x01 (0000ms, 0282ms total)
TAD44 412:438 JLINK_ReadReg(R15 (PC))  returns 0x000000F0 (0000ms, 0282ms total)
TA084 412:460 JLINK_BeginDownload(Flags = 0x00) (0000ms, 0282ms total)
TA084 412:460 JLINK_WriteMem(0x00000800, 0x32B0 Bytes, ...) - Data: 50 07 00 20 CD 32 00 00 C9 32 00 00 C9 32 00 00 ...  returns 0x32B0 (0001ms, 0283ms total)
TA084 412:461 JLINK_WriteMem(0x00003AB0, 0x0070 Bytes, ...) - Data: 40 1F 00 00 08 00 00 00 08 01 01 01 10 00 00 20 ...  returns 0x70 (0000ms, 0283ms total)
TA084 412:479 JLINK_EndDownload() -- CPU_ReadMem(4 bytes @ 0x41006004) -- -------------------------------------- -- Start of determining dirty areas in flash cache -- End of determining dirty areas -- Start of preparing flash programming -- Calculating RAM usage -- RAM usage = 4064 Bytes -- Preserving CPU registers -- Preparing memory -- Determining CPU clock frequency -- CPU frequency = 1338 kHz -- Preparing target -- Downloading RAMCode -- Checking target RAM & preparing RAMCode
 -- End of preparing flash programmingCPU is running at very low speed (1338 kHz). Readback will be performed instead of CRC calculation. -- CPU is running at 1338 kHz. -- Start of comparing flash -- Read back was estimated as fastest method -- Comparing range 0x0800 - 0x17FF (16 Sectors, 4 KB), using multi-block CRC calculation -- CRC check is not supported by this flash bank. Switched to read back method. -- CPU_ReadMem(256 bytes @ 0x00000800) -- CPU_ReadMem(256 bytes @ 0x00000900)
 -- CPU_ReadMem(256 bytes @ 0x00000A00) -- CPU_ReadMem(256 bytes @ 0x00000B00) -- CPU_ReadMem(256 bytes @ 0x00000C00) -- CPU_ReadMem(256 bytes @ 0x00000D00) -- CPU_ReadMem(256 bytes @ 0x00000E00) -- CPU_ReadMem(256 bytes @ 0x00000F00) -- CPU_ReadMem(256 bytes @ 0x00001000) -- CPU_ReadMem(256 bytes @ 0x00001100) -- CPU_ReadMem(256 bytes @ 0x00001200) -- CPU_ReadMem(256 bytes @ 0x00001300) -- CPU_ReadMem(256 bytes @ 0x00001400) -- CPU_ReadMem(256 bytes @ 0x00001500) -- CPU_ReadMem(256 bytes @ 0x00001600)
 -- CPU_ReadMem(256 bytes @ 0x00001700) -- CRC does not match for sectors 0-1, 3-15 -- Comparing range 0x1800 - 0x27FF (16 Sectors, 4 KB), using multi-block CRC calculation -- CRC check is not supported by this flash bank. Switched to read back method. -- CPU_ReadMem(256 bytes @ 0x00001800) -- CPU_ReadMem(256 bytes @ 0x00001900) -- CPU_ReadMem(256 bytes @ 0x00001A00) -- CPU_ReadMem(256 bytes @ 0x00001B00) -- CPU_ReadMem(256 bytes @ 0x00001C00) -- CPU_ReadMem(256 bytes @ 0x00001D00)
 -- CPU_ReadMem(256 bytes @ 0x00001E00) -- CPU_ReadMem(256 bytes @ 0x00001F00) -- CPU_ReadMem(256 bytes @ 0x00002000) -- CPU_ReadMem(256 bytes @ 0x00002100) -- CPU_ReadMem(256 bytes @ 0x00002200) -- CPU_ReadMem(256 bytes @ 0x00002300) -- CPU_ReadMem(256 bytes @ 0x00002400) -- CPU_ReadMem(256 bytes @ 0x00002500) -- CPU_ReadMem(256 bytes @ 0x00002600) -- CPU_ReadMem(256 bytes @ 0x00002700) -- CRC does not match for sectors 0-15
 -- Comparing range 0x2800 - 0x37FF (16 Sectors, 4 KB), using multi-block CRC calculation -- CRC check is not supported by this flash bank. Switched to read back method. -- CPU_ReadMem(256 bytes @ 0x00002800) -- CPU_ReadMem(256 bytes @ 0x00002900) -- CPU_ReadMem(256 bytes @ 0x00002A00) -- CPU_ReadMem(256 bytes @ 0x00002B00) -- CPU_ReadMem(256 bytes @ 0x00002C00) -- CPU_ReadMem(256 bytes @ 0x00002D00) -- CPU_ReadMem(256 bytes @ 0x00002E00) -- CPU_ReadMem(256 bytes @ 0x00002F00)
 -- CPU_ReadMem(256 bytes @ 0x00003000) -- CPU_ReadMem(256 bytes @ 0x00003100) -- CPU_ReadMem(256 bytes @ 0x00003200) -- CPU_ReadMem(256 bytes @ 0x00003300) -- CPU_ReadMem(256 bytes @ 0x00003400) -- CPU_ReadMem(256 bytes @ 0x00003500) -- CPU_ReadMem(256 bytes @ 0x00003600) -- CPU_ReadMem(256 bytes @ 0x00003700) -- CRC does not match for sectors 0-15 -- Comparing range 0x3800 - 0x3BFF (4 Sectors, 1024 Bytes), using multi-block CRC calculation
 -- CRC check is not supported by this flash bank. Switched to read back method. -- CPU_ReadMem(256 bytes @ 0x00003800) -- CPU_ReadMem(256 bytes @ 0x00003900) -- CPU_ReadMem(256 bytes @ 0x00003A00) -- CPU_ReadMem(256 bytes @ 0x00003B00) -- CRC does not match for sectors 0-3 -- Comparing range 0x0A00 - 0x0AFF (1 Sector, 256 Bytes), using alternative multi-block CRC calculation -- CRC check is not supported by this flash bank. Switched to read back method. -- CPU_ReadMem(256 bytes @ 0x00000A00)
 -- All CRCs match -- End of comparing flash -- Start of erasing sectors -- Erasing range 0x00000800 - 0x000009FF (002 Sectors, 512 Bytes) -- Erasing range 0x00000B00 - 0x00000EFF (004 Sectors, 1024 Bytes) -- Erasing range 0x00000F00 - 0x000012FF (004 Sectors, 1024 Bytes) -- Erasing range 0x00001300 - 0x000016FF (004 Sectors, 1024 Bytes) -- Erasing range 0x00001700 - 0x00001AFF (004 Sectors, 1024 Bytes) -- Erasing range 0x00001B00 - 0x00001EFF (004 Sectors, 1024 Bytes)
 -- Erasing range 0x00001F00 - 0x000022FF (004 Sectors, 1024 Bytes) -- Erasing range 0x00002300 - 0x000026FF (004 Sectors, 1024 Bytes) -- Erasing range 0x00002700 - 0x00002AFF (004 Sectors, 1024 Bytes) -- Erasing range 0x00002B00 - 0x00002EFF (004 Sectors, 1024 Bytes) -- Erasing range 0x00002F00 - 0x000032FF (004 Sectors, 1024 Bytes) -- Erasing range 0x00003300 - 0x000036FF (004 Sectors, 1024 Bytes) -- Erasing range 0x00003700 - 0x00003AFF (004 Sectors, 1024 Bytes)
 -- Erasing range 0x00003B00 - 0x00003BFF (001 Sector, 256 Bytes) -- End of erasing sectors -- Start of flash programming -- Programming range 0x00000800 - 0x000009FF (002 Sectors, 512 Bytes) -- Programming range 0x00000B00 - 0x00000EFF (004 Sectors, 1024 Bytes) -- Programming range 0x00000F00 - 0x000012FF (004 Sectors, 1024 Bytes) -- Programming range 0x00001300 - 0x000016FF (004 Sectors, 1024 Bytes) -- Programming range 0x00001700 - 0x00001AFF (004 Sectors, 1024 Bytes)
 -- Programming range 0x00001B00 - 0x00001EFF (004 Sectors, 1024 Bytes) -- Programming range 0x00001F00 - 0x000022FF (004 Sectors, 1024 Bytes) -- Programming range 0x00002300 - 0x000026FF (004 Sectors, 1024 Bytes) -- Programming range 0x00002700 - 0x00002AFF (004 Sectors, 1024 Bytes) -- Programming range 0x00002B00 - 0x00002EFF (004 Sectors, 1024 Bytes) -- Programming range 0x00002F00 - 0x000032FF (004 Sectors, 1024 Bytes) -- Programming range 0x00003300 - 0x000036FF (004 Sectors, 1024 Bytes)
 -- Programming range 0x00003700 - 0x00003AFF (004 Sectors, 1024 Bytes) -- Programming range 0x00003B00 - 0x00003BFF (001 Sector, 256 Bytes) -- End of flash programming -- 0x0800 - 0x09FF (002 Sectors, 512 Bytes) -- 0x0B00 - 0x3BFF (049 Sectors, 12 KB) -- Start of verifying flash -- Checksum calculation was estimated as fastest method -- Checksum is not supported by this flash bank. Switched to read back method. -- Checksum calculation was estimated as fastest method
 -- Checksum is not supported by this flash bank. Switched to read back method. -- End of verifying flash -- Start of restoring -- Restoring RAMCode -- Restore target -- Restore memory -- Restoring CPU registers -- End of restoring -- Flash programming performed for 2 ranges (13056 bytes) -- Total time needed: 0.946s (Prepare: 0.073s, Compare: 0.125s, Erase: 0.134s, Program: 0.356s, Verify: 0.248s, Restore: 0.007s)  returns 0x3300 (0948ms, 1231ms total)
TAD44 413:427 JLINK_IsHalted()  returns TRUE (0000ms, 1231ms total)
T718C 413:533 JLINK_Halt()  returns 0x00 (0000ms, 1231ms total)
T718C 413:533 JLINK_ReadReg(R15 (PC))  returns 0x000000F0 (0000ms, 1231ms total)
T718C 413:533 JLINK_ReadReg(R13 (SP))  returns 0x20000440 (0000ms, 1231ms total)
T718C 413:537 JLINK_ReadMemHW(0x000000F0, 0x0004 Bytes, ...) -- CPU_ReadMem(4 bytes @ 0x000000F0) - Data: 1D 48 1E 49  returns 0x00 (0001ms, 1232ms total)
T718C 413:538 JLINK_ReadReg(R0)  returns 0x00001808 (0000ms, 1232ms total)
T718C 413:538 JLINK_ReadReg(R1)  returns 0x42002000 (0000ms, 1232ms total)
T718C 413:538 JLINK_ReadReg(R2)  returns 0x0000001F (0000ms, 1232ms total)
T718C 413:538 JLINK_ReadReg(R3)  returns 0x00000000 (0000ms, 1232ms total)
T718C 413:538 JLINK_ReadReg(R4)  returns 0x00000002 (0000ms, 1232ms total)
T718C 413:538 JLINK_ReadReg(R5)  returns 0x200002EC (0000ms, 1232ms total)
T718C 413:538 JLINK_ReadReg(R6)  returns 0x00001A99 (0000ms, 1232ms total)
T718C 413:538 JLINK_ReadReg(R7)  returns 0x00003A04 (0000ms, 1232ms total)
T718C 413:538 JLINK_ReadReg(R8)  returns 0xFDD763FC (0000ms, 1232ms total)
T718C 413:538 JLINK_ReadReg(R9)  returns 0xF33EBF71 (0000ms, 1232ms total)
T718C 413:538 JLINK_ReadReg(R10)  returns 0x8BDE6EB0 (0000ms, 1232ms total)
T718C 413:538 JLINK_ReadReg(R11)  returns 0x79BEBB26 (0000ms, 1232ms total)
T718C 413:538 JLINK_ReadReg(R12)  returns 0x00000000 (0000ms, 1232ms total)
T718C 413:538 JLINK_ReadReg(R13 (SP))  returns 0x20000440 (0000ms, 1232ms total)
T718C 413:538 JLINK_ReadReg(R14)  returns 0x000019F3 (0000ms, 1232ms total)
T718C 413:538 JLINK_ReadReg(R15 (PC))  returns 0x000000F0 (0000ms, 1232ms total)
T718C 413:538 JLINK_ReadReg(XPSR)  returns 0x61000000 (0000ms, 1232ms total)
T718C 413:538 JLINK_ReadReg(MSP)  returns 0x20000440 (0000ms, 1232ms total)
T718C 413:538 JLINK_ReadReg(PSP)  returns 0xE5F7D448 (0000ms, 1232ms total)
T718C 413:538 JLINK_ReadReg(PRIMASK)  returns 0x00000000 (0000ms, 1232ms total)
T718C 413:538 JLINK_ReadReg(BASEPRI)  returns 0x00000000 (0000ms, 1232ms total)
T718C 413:538 JLINK_ReadReg(FAULTMASK)  returns 0x00000000 (0000ms, 1232ms total)
T718C 413:538 JLINK_ReadReg(CONTROL)  returns 0x00000000 (0000ms, 1232ms total)
T718C 413:538 JLINK_ReadMemHW(0x000000F0, 0x0002 Bytes, ...) -- CPU_ReadMem(2 bytes @ 0x000000F0) - Data: 1D 48  returns 0x00 (0002ms, 1234ms total)
T718C 413:570 JLINK_ReadReg(R0)  returns 0x00001808 (0000ms, 1234ms total)
T718C 413:570 JLINK_ReadReg(R1)  returns 0x42002000 (0000ms, 1234ms total)
T718C 413:570 JLINK_ReadReg(R2)  returns 0x0000001F (0000ms, 1234ms total)
T718C 413:570 JLINK_ReadReg(R3)  returns 0x00000000 (0000ms, 1234ms total)
T718C 413:570 JLINK_ReadReg(R4)  returns 0x00000002 (0000ms, 1234ms total)
T718C 413:570 JLINK_ReadReg(R5)  returns 0x200002EC (0000ms, 1234ms total)
T718C 413:570 JLINK_ReadReg(R6)  returns 0x00001A99 (0000ms, 1234ms total)
T718C 413:570 JLINK_ReadReg(R7)  returns 0x00003A04 (0000ms, 1234ms total)
T718C 413:570 JLINK_ReadReg(R8)  returns 0xFDD763FC (0000ms, 1234ms total)
T718C 413:570 JLINK_ReadReg(R9)  returns 0xF33EBF71 (0000ms, 1234ms total)
T718C 413:570 JLINK_ReadReg(R10)  returns 0x8BDE6EB0 (0000ms, 1234ms total)
T718C 413:570 JLINK_ReadReg(R11)  returns 0x79BEBB26 (0000ms, 1234ms total)
T718C 413:570 JLINK_ReadReg(R12)  returns 0x00000000 (0000ms, 1234ms total)
T718C 413:570 JLINK_ReadReg(R13 (SP))  returns 0x20000440 (0000ms, 1234ms total)
T718C 413:570 JLINK_ReadReg(R14)  returns 0x000019F3 (0000ms, 1234ms total)
T718C 413:570 JLINK_ReadReg(R15 (PC))  returns 0x000000F0 (0000ms, 1234ms total)
T718C 413:570 JLINK_ReadReg(XPSR)  returns 0x61000000 (0000ms, 1234ms total)
T718C 413:570 JLINK_ReadReg(MSP)  returns 0x20000440 (0000ms, 1234ms total)
T718C 413:570 JLINK_ReadReg(PSP)  returns 0xE5F7D448 (0000ms, 1234ms total)
T718C 413:570 JLINK_ReadReg(PRIMASK)  returns 0x00000000 (0000ms, 1234ms total)
T718C 413:570 JLINK_ReadReg(BASEPRI)  returns 0x00000000 (0000ms, 1234ms total)
T718C 413:570 JLINK_ReadReg(FAULTMASK)  returns 0x00000000 (0000ms, 1234ms total)
T718C 413:570 JLINK_ReadReg(CONTROL)  returns 0x00000000 (0000ms, 1234ms total)
T718C 413:571 JLINK_ReadMemHW(0x000000F0, 0x0004 Bytes, ...) -- CPU_ReadMem(4 bytes @ 0x000000F0) - Data: 1D 48 1E 49  returns 0x00 (0001ms, 1235ms total)
T718C 413:572 JLINK_ReadMemHW(0x000000F0, 0x0002 Bytes, ...) -- CPU_ReadMem(2 bytes @ 0x000000F0) - Data: 1D 48  returns 0x00 (0000ms, 1235ms total)
T718C 413:616 JLINK_ReadMemHW(0x00001C36, 0x0002 Bytes, ...) -- CPU_ReadMem(2 bytes @ 0x00001C36) - Data: 36 4B  returns 0x00 (0000ms, 1235ms total)
T718C 413:616 JLINK_ReadMemHW(0x00001D10, 0x0004 Bytes, ...) -- CPU_ReadMem(4 bytes @ 0x00001D10) - Data: 98 00 00 20  returns 0x00 (0001ms, 1236ms total)
T718C 413:617 JLINK_ReadMemHW(0x00001CB4, 0x0002 Bytes, ...) -- CPU_ReadMem(2 bytes @ 0x00001CB4) - Data: 1C 4B  returns 0x00 (0002ms, 1238ms total)
TAD44 413:628 JLINK_IsHalted()  returns TRUE (0000ms, 1238ms total)
TA084 413:642 JLINK_GetNumBPUnits(Type = 0xFFFFFF02)  returns 0x04 (0000ms, 1238ms total)
TA084 413:642 JLINK_SetBPEx(Addr = 0x00001CB4, Type = 0xFFFFFFF2)  returns 0x00000001 (0000ms, 1238ms total)
TA084 413:642 JLINK_GetBPInfo(BPHandle = 1)  returns 0x00 (0000ms, 1238ms total)
T718C 413:683 JLINK_ReadMemHW(0x00001C36, 0x0002 Bytes, ...) -- CPU_ReadMem(2 bytes @ 0x00001C36) - Data: 36 4B  returns 0x00 (0000ms, 1238ms total)
T718C 413:683 JLINK_ReadMemHW(0x00001D10, 0x0004 Bytes, ...) -- CPU_ReadMem(4 bytes @ 0x00001D10) - Data: 98 00 00 20  returns 0x00 (0001ms, 1239ms total)
T718C 413:684 JLINK_ReadMemHW(0x00001CBC, 0x0002 Bytes, ...) -- CPU_ReadMem(2 bytes @ 0x00001CBC) - Data: FF 2C  returns 0x00 (0000ms, 1239ms total)
TA084 413:686 JLINK_SetBPEx(Addr = 0x00001CBC, Type = 0xFFFFFFF2)  returns 0x00000002 (0000ms, 1239ms total)
TA084 413:686 JLINK_GetBPInfo(BPHandle = 2)  returns 0x00 (0000ms, 1239ms total)
T718C 413:698 JLINK_Reset() -- CPU_ReadMem(4 bytes @ 0x200003E0) -- CPU_WriteMem(4 bytes @ 0x200003E0) -- CPU_ReadMem(4 bytes @ 0xE000EDFC) -- CPU_WriteMem(4 bytes @ 0xE000EDFC) -- CPU_WriteMem(4 bytes @ 0xE000ED0C) -- CPU_ReadMem(4 bytes @ 0xE000EDF0) -- CPU_ReadMem(4 bytes @ 0x41002100) -- CPU is running -- CPU_WriteMem(4 bytes @ 0xE000EDFC) -- CPU_WriteMem(4 bytes @ 0xE0002000) -- CPU_ReadMem(4 bytes @ 0xE000EDFC) -- CPU_ReadMem(4 bytes @ 0xE0001000) -- CPU_WriteMem(4 bytes @ 0xE0001000) (0010ms, 1249ms total)
TAD44 413:709 JLINK_IsHalted()  returns TRUE (0000ms, 1249ms total)
TAD44 413:709 JLINK_GetMOEs(...) -- CPU_ReadMem(4 bytes @ 0xE000ED30)  returns 0x01 (0000ms, 1249ms total)
TAD44 413:709 JLINK_ReadReg(R15 (PC))  returns 0x000000F0 (0000ms, 1249ms total)
T718C 413:719 JLINK_ReadReg(R15 (PC))  returns 0x000000F0 (0000ms, 1249ms total)
T718C 413:719 JLINK_ReadReg(R13 (SP))  returns 0x20000440 (0000ms, 1249ms total)
T718C 413:719 JLINK_ReadMemHW(0x000000F0, 0x0004 Bytes, ...) -- CPU_ReadMem(4 bytes @ 0x000000F0) - Data: 1D 48 1E 49  returns 0x00 (0001ms, 1250ms total)
T718C 413:721 JLINK_ReadReg(R0)  returns 0x00000000 (0000ms, 1250ms total)
T718C 413:721 JLINK_ReadReg(R1)  returns 0x41004004 (0000ms, 1250ms total)
T718C 413:721 JLINK_ReadReg(R2)  returns 0x00000100 (0000ms, 1250ms total)
T718C 413:721 JLINK_ReadReg(R3)  returns 0x00000200 (0000ms, 1250ms total)
T718C 413:721 JLINK_ReadReg(R4)  returns 0x20000380 (0000ms, 1250ms total)
T718C 413:721 JLINK_ReadReg(R5)  returns 0xFFFFFFFF (0000ms, 1250ms total)
T718C 413:721 JLINK_ReadReg(R6)  returns 0x00000080 (0000ms, 1250ms total)
T718C 413:721 JLINK_ReadReg(R7)  returns 0x20000165 (0000ms, 1250ms total)
T718C 413:721 JLINK_ReadReg(R8)  returns 0xFDD763FC (0000ms, 1250ms total)
T718C 413:721 JLINK_ReadReg(R9)  returns 0xF33EBF71 (0000ms, 1250ms total)
T718C 413:721 JLINK_ReadReg(R10)  returns 0x8BDE6EB0 (0000ms, 1250ms total)
T718C 413:721 JLINK_ReadReg(R11)  returns 0x79BEBB26 (0000ms, 1250ms total)
T718C 413:721 JLINK_ReadReg(R12)  returns 0x00000000 (0000ms, 1250ms total)
T718C 413:721 JLINK_ReadReg(R13 (SP))  returns 0x20000440 (0000ms, 1250ms total)
T718C 413:721 JLINK_ReadReg(R14)  returns 0x2000015D (0000ms, 1250ms total)
T718C 413:721 JLINK_ReadReg(R15 (PC))  returns 0x000000F0 (0000ms, 1250ms total)
T718C 413:721 JLINK_ReadReg(XPSR)  returns 0x41000000 (0000ms, 1250ms total)
T718C 413:721 JLINK_ReadReg(MSP)  returns 0x20000440 (0000ms, 1250ms total)
T718C 413:721 JLINK_ReadReg(PSP)  returns 0xE5F7D448 (0000ms, 1250ms total)
T718C 413:721 JLINK_ReadReg(PRIMASK)  returns 0x00000000 (0000ms, 1250ms total)
T718C 413:721 JLINK_ReadReg(BASEPRI)  returns 0x00000000 (0000ms, 1250ms total)
T718C 413:721 JLINK_ReadReg(FAULTMASK)  returns 0x00000000 (0000ms, 1250ms total)
T718C 413:721 JLINK_ReadReg(CONTROL)  returns 0x00000000 (0000ms, 1250ms total)
T718C 413:721 JLINK_ReadMemHW(0x000000F0, 0x0002 Bytes, ...) -- CPU_ReadMem(2 bytes @ 0x000000F0) - Data: 1D 48  returns 0x00 (0001ms, 1251ms total)
T718C 413:734 JLINK_ReadMem (0x2000015C, 0x0004 Bytes, ...) -- CPU_ReadMem(64 bytes @ 0x20000140) -- Updating C cache (64 bytes @ 0x20000140) -- Read from C cache (4 bytes @ 0x2000015C) - Data: 50 E7 0F B5  returns 0x00 (0002ms, 1253ms total)
T718C 413:736 JLINK_ReadMem (0x20000134, 0x0002 Bytes, ...) -- CPU_ReadMem(64 bytes @ 0x20000100) -- Updating C cache (64 bytes @ 0x20000100) -- Read from C cache (2 bytes @ 0x20000134) - Data: 64 E7  returns 0x00 (0001ms, 1254ms total)
T718C 413:738 JLINK_ReadMem (0x2000015C, 0x0004 Bytes, ...) -- Read from C cache (4 bytes @ 0x2000015C) - Data: 50 E7 0F B5  returns 0x00 (0000ms, 1254ms total)
T718C 413:738 JLINK_ReadMem (0x20000134, 0x0002 Bytes, ...) -- Read from C cache (2 bytes @ 0x20000134) - Data: 64 E7  returns 0x00 (0000ms, 1254ms total)
T718C 413:759 JLINK_ReadMemHW(0x0000340C, 0x0001 Bytes, ...) -- CPU_ReadMem(1 bytes @ 0x0000340C) - Data: 70  returns 0x00 (0001ms, 1255ms total)
T718C 413:814 JLINK_ReadReg(R15 (PC))  returns 0x000000F0 (0000ms, 1255ms total)
T718C 413:814 JLINK_SetBPEx(Addr = 0x0000340C, Type = 0xFFFFFFF2)  returns 0x00000003 (0000ms, 1255ms total)
T718C 413:814 JLINK_GetBPInfo(BPHandle = 3)  returns 0x00 (0000ms, 1255ms total)
T718C 413:814 JLINK_Go() -- CPU_WriteMem(16 bytes @ 0x20000000) -- CPU_WriteMem(4 bytes @ 0xE0002000) -- CPU_WriteMem(4 bytes @ 0xE0002000) -- CPU_WriteMem(4 bytes @ 0xE0002000) -- CPU_ReadMem(4 bytes @ 0xE0001000) -- CPU_WriteMem(4 bytes @ 0xE000ED30) -- CPU_WriteMem(4 bytes @ 0xE0001000) -- CPU_WriteMem(4 bytes @ 0xE0002008) -- CPU_WriteMem(4 bytes @ 0xE000200C) -- CPU_WriteMem(4 bytes @ 0xE0002010) -- CPU_WriteMem(4 bytes @ 0xE0002014) -- CPU_WriteMem(4 bytes @ 0xE0001004) (0006ms, 1261ms total)
TAD44 413:820 JLINK_IsHalted() -- CPU_ReadMem(4 bytes @ 0x41002100)  returns FALSE (0001ms, 1262ms total)
TAD44 413:843 JLINK_IsHalted() -- CPU_ReadMem(4 bytes @ 0x41002100)  returns FALSE (0001ms, 1262ms total)
TAD44 413:929 JLINK_IsHalted() -- CPU_ReadMem(4 bytes @ 0x41002100)  returns FALSE (0001ms, 1262ms total)
TAD44 414:131 JLINK_IsHalted() -- CPU_ReadMem(4 bytes @ 0x41002100)  returns FALSE (0001ms, 1262ms total)
TAD44 414:335 JLINK_IsHalted() -- CPU_ReadMem(4 bytes @ 0x41002100)  returns FALSE (0001ms, 1262ms total)
TAD44 414:537 JLINK_IsHalted() -- CPU_ReadMem(4 bytes @ 0x41002100)  returns FALSE (0001ms, 1262ms total)
TAD44 414:738 JLINK_IsHalted() -- CPU_ReadMem(4 bytes @ 0x41002100)  returns FALSE (0002ms, 1263ms total)
TAD44 414:942 JLINK_IsHalted() -- CPU_ReadMem(4 bytes @ 0x41002100)  returns FALSE (0001ms, 1262ms total)
TAD44 415:144 JLINK_IsHalted() -- CPU_ReadMem(4 bytes @ 0x41002100)  returns FALSE (0001ms, 1262ms total)
TAD44 415:346 JLINK_IsHalted() -- CPU_ReadMem(4 bytes @ 0x41002100)  returns FALSE (0001ms, 1262ms total)
TAD44 415:547 JLINK_IsHalted()  returns TRUE (0003ms, 1264ms total)
TAD44 415:550 JLINK_GetMOEs(...) -- CPU_ReadMem(4 bytes @ 0xE000ED30)  returns 0x01 (0001ms, 1262ms total)
TAD44 415:551 JLINK_ReadReg(R15 (PC))  returns 0x0000340C (0000ms, 1262ms total)
T718C 415:561 JLINK_ReadReg(R15 (PC))  returns 0x0000340C (0000ms, 1262ms total)
T718C 415:561 JLINK_ReadReg(R13 (SP))  returns 0x20000748 (0000ms, 1262ms total)
T718C 415:562 JLINK_ReadMemHW(0x0000340C, 0x0004 Bytes, ...) -- CPU_ReadMem(4 bytes @ 0x0000340C) - Data: 70 B5 0A 4B  returns 0x00 (0001ms, 1263ms total)
T718C 415:594 JLINK_WriteU32(0xE000EDFC, 0x01000000) -- CPU_WriteMem(4 bytes @ 0xE000EDFC)  returns 0x00 (0000ms, 1263ms total)
T718C 415:594 JLINK_ReadMem (0xE0001000, 0x0004 Bytes, ...) -- CPU_ReadMem(4 bytes @ 0xE0001000) - Data: 00 00 00 20  returns 0x00 (0001ms, 1264ms total)
T718C 415:595 JLINK_WriteU32(0xE0001000, 0x20000001)  returns 0x00 (0000ms, 1264ms total)
T718C 415:595 JLINK_WriteU32(0xE0001028, 0x00000100)  returns 0x00 (0000ms, 1264ms total)
T718C 415:595 JLINK_ReadMem (0xE0001028, 0x0004 Bytes, ...) -- CPU_WriteMem(4 bytes @ 0xE0001028) -- CPU_ReadMem(4 bytes @ 0xE0001028) - Data: 00 00 00 00  returns 0x00 (0001ms, 1265ms total)
T718C 415:596 JLINK_WriteU32(0xE0001024, 0x0000001F)  returns 0x00 (0000ms, 1265ms total)
T718C 415:596 JLINK_ReadMem (0xE0001024, 0x0004 Bytes, ...) -- CPU_WriteMem(4 bytes @ 0xE0001024) -- CPU_ReadMem(4 bytes @ 0xE0001024) - Data: 1F 00 00 00  returns 0x00 (0001ms, 1266ms total)
T718C 415:597 JLINK_WriteU32(0xE0001038, 0x00000100)  returns 0x00 (0000ms, 1266ms total)
T718C 415:597 JLINK_ReadMem (0xE0001038, 0x0004 Bytes, ...) -- CPU_WriteMem(4 bytes @ 0xE0001038) -- CPU_ReadMem(4 bytes @ 0xE0001038) - Data: 00 00 00 00  returns 0x00 (0001ms, 1267ms total)
T718C 415:598 JLINK_WriteU32(0xE0001034, 0x0000001F)  returns 0x00 (0000ms, 1267ms total)
T718C 415:598 JLINK_ReadMem (0xE0001034, 0x0004 Bytes, ...) -- CPU_WriteMem(4 bytes @ 0xE0001034) -- CPU_ReadMem(4 bytes @ 0xE0001034) - Data: 1F 00 00 00  returns 0x00 (0001ms, 1268ms total)
T718C 415:599 JLINK_WriteU32(0xE0001020, 0x00000000)  returns 0x00 (0000ms, 1268ms total)
T718C 415:599 JLINK_WriteU32(0xE0001024, 0x00000000)  returns 0x00 (0000ms, 1268ms total)
T718C 415:599 JLINK_WriteU32(0xE0001028, 0x00000000)  returns 0x00 (0000ms, 1268ms total)
T718C 415:599 JLINK_WriteU32(0xE0001030, 0x00000000)  returns 0x00 (0000ms, 1268ms total)
T718C 415:599 JLINK_WriteU32(0xE0001034, 0x00000000)  returns 0x00 (0000ms, 1268ms total)
T718C 415:599 JLINK_WriteU32(0xE0001038, 0x00000000)  returns 0x00 (0000ms, 1268ms total)
T718C 415:599 JLINK_GetBPInfo(BPHandle = 3)  returns 0x00 (0000ms, 1268ms total)
T718C 415:599 JLINK_ClrBPEx(BPHandle = 0x00000003)  returns 0x00 (0000ms, 1268ms total)
T718C 415:599 JLINK_ReadReg(R15 (PC))  returns 0x0000340C (0000ms, 1268ms total)
T718C 415:599 JLINK_Go() -- CPU_WriteMem(4 bytes @ 0xE0002000) -- CPU_WriteMem(4 bytes @ 0xE0002000) -- CPU_WriteMem(4 bytes @ 0xE0001000) -- CPU_ReadMem(4 bytes @ 0xE0001000) -- CPU_WriteMem(4 bytes @ 0xE000ED30) -- CPU_WriteMem(4 bytes @ 0xE0001000) -- CPU_WriteMem(4 bytes @ 0xE0001020) -- CPU_WriteMem(4 bytes @ 0xE0001030) -- CPU_WriteMem(4 bytes @ 0xE0001024) -- CPU_WriteMem(4 bytes @ 0xE0001034) -- CPU_WriteMem(4 bytes @ 0xE0001028) -- CPU_WriteMem(4 bytes @ 0xE0001038)
 -- CPU_WriteMem(4 bytes @ 0xE0002010) (0004ms, 1272ms total)
TAD44 415:603 JLINK_IsHalted() -- CPU_ReadMem(4 bytes @ 0x41002100)  returns FALSE (0001ms, 1273ms total)
TAD44 415:645 JLINK_IsHalted() -- CPU_ReadMem(4 bytes @ 0x41002100)  returns FALSE (0001ms, 1273ms total)
TAD44 415:807 JLINK_IsHalted() -- CPU_ReadMem(4 bytes @ 0x41002100)  returns FALSE (0001ms, 1273ms total)
TAD44 416:011 JLINK_IsHalted() -- CPU_ReadMem(4 bytes @ 0x41002100)  returns FALSE (0000ms, 1272ms total)
T718C 416:033 JLINK_Halt()  returns 0x00 (0002ms, 1274ms total)
TA084 416:135 JLINK_GetBPInfo(BPHandle = 1)  returns 0x00 (0000ms, 1274ms total)
TA084 416:135 JLINK_ClrBPEx(BPHandle = 0x00000001)  returns 0x00 (0001ms, 1275ms total)
TA084 416:136 JLINK_GetBPInfo(BPHandle = 2)  returns 0x00 (0000ms, 1275ms total)
TA084 416:136 JLINK_ClrBPEx(BPHandle = 0x00000002)  returns 0x00 (0000ms, 1275ms total)
TAD44 416:211 JLINK_IsHalted()  returns TRUE (0000ms, 1275ms total)
TAD44 416:211 JLINK_GetMOEs(...) -- CPU_ReadMem(4 bytes @ 0xE000ED30)  returns 0x01 (0000ms, 1275ms total)
TAD44 416:211 JLINK_ReadReg(R15 (PC))  returns 0x00001AD4 (0000ms, 1275ms total)
TA084 416:213 JLINK_ResetPullsRESET(ON) (0000ms, 1275ms total)
TA084 416:213 JLINK_ResetNoHalt() >0x10B TIF>Found SW-DP with ID 0x0BC11477 >0x0D TIF> >0x28 TIF> >0x0D TIF> >0x28 TIF> >0x0D TIF> >0x28 TIF> >0x0D TIF> >0x28 TIF> >0x0D TIF> >0x21 TIF> >0x0D TIF> >0x28 TIF> >0x0D TIF> >0x28 TIF> >0x0D TIF> >0x28 TIF> >0x0D TIF> >0x21 TIF> >0x0D TIF> >0x21 TIF> >0x10B TIF>Found SW-DP with ID 0x0BC11477 >0x0D TIF> >0x28 TIF> >0x0D TIF> >0x28 TIF> >0x0D TIF> >0x28 TIF> >0x0D TIF> >0x28 TIF> >0x0D TIF> >0x21 TIF> >0x0D TIF> >0x28 TIF>
Using pre-configured AP[0] as AHB-AP to communicate with core >0x0D TIF> >0x28 TIF> >0x0D TIF> >0x21 TIF> >0x0D TIF> >0x21 TIF>AHB-AP ROM: 0x41003000 (Base addr. of first ROM table) >0x0D TIF> >0x28 TIF> >0x0D TIF> >0x28 TIF> >0x0D TIF> >0x28 TIF> >0x0D TIF> >0x21 TIF> >0x0D TIF> >0x21 TIF> >0x0D TIF> >0x28 TIF> >0x0D TIF> >0x21 TIF> >0x0D TIF> >0x21 TIF>CPUID reg: 0x410CC601. Implementer code: 0x41 (ARM)Found Cortex-M0 r0p1, Little endian. -- CPU_ReadMem(4 bytes @ 0xE000EDF0)
 -- CPU_ReadMem(4 bytes @ 0xE0002000) -- CPU_ReadMem(4 bytes @ 0xE0001000)CoreSight components:ROMTbl[0] @ 41003000 -- CPU_ReadMem(16 bytes @ 0x41003000) -- CPU_ReadMem(16 bytes @ 0xE00FFFF0) -- CPU_ReadMem(16 bytes @ 0xE00FFFE0)ROMTbl[0][0]: E00FF000, CID: B105100D, PID: 000BB4C0 ROM TableROMTbl[1] @ E00FF000 -- CPU_ReadMem(16 bytes @ 0xE00FF000) -- CPU_ReadMem(16 bytes @ 0xE000EFF0) -- CPU_ReadMem(16 bytes @ 0xE000EFE0)ROMTbl[1][0]: E000E000, CID: B105E00D, PID: 000BB008 SCS
 -- CPU_WriteMem(4 bytes @ 0xE0001000) -- CPU_ReadMem(16 bytes @ 0xE0001FF0) -- CPU_ReadMem(16 bytes @ 0xE0001FE0)ROMTbl[1][1]: E0001000, CID: B105E00D, PID: 000BB00A DWT -- CPU_ReadMem(16 bytes @ 0xE0002FF0) -- CPU_ReadMem(16 bytes @ 0xE0002FE0)ROMTbl[1][2]: E0002000, CID: B105E00D, PID: 000BB00B FPB -- CPU_ReadMem(16 bytes @ 0x41006FF0) -- CPU_ReadMem(16 bytes @ 0x41006FE0)ROMTbl[0][1]: 41006000, CID: B105900D, PID: 001BB932 MTB-M0+
                JLINK_Reset() -- CPU_ReadMem(4 bytes @ 0x20000000) -- CPU_WriteMem(4 bytes @ 0x20000000) -- CPU_ReadMem(4 bytes @ 0xE000EDFC) -- CPU_WriteMem(4 bytes @ 0xE000EDFC) -- CPU_WriteMem(4 bytes @ 0xE000ED0C) -- CPU_ReadMem(4 bytes @ 0xE000EDF0) -- CPU_ReadMem(4 bytes @ 0x41002100) -- CPU is running -- CPU_WriteMem(4 bytes @ 0xE000EDFC) -- CPU_WriteMem(4 bytes @ 0xE0002000) -- CPU_ReadMem(4 bytes @ 0xE000EDFC) -- CPU_ReadMem(4 bytes @ 0xE0001000) -- CPU_WriteMem(4 bytes @ 0xE0001000)
 (0010ms, 0010ms total)
                JLINK_Go() -- CPU_ReadMem(4 bytes @ 0xE0001000) -- CPU_WriteMem(4 bytes @ 0xE0001000) -- CPU_WriteMem(4 bytes @ 0xE0002008) -- CPU_WriteMem(4 bytes @ 0xE000200C) -- CPU_WriteMem(4 bytes @ 0xE0002010) -- CPU_WriteMem(4 bytes @ 0xE0002014) -- CPU_WriteMem(4 bytes @ 0xE0001004) (0003ms, 0013ms total)
               (0039ms, 1314ms total)
TA084 474:681 JLINK_EMU_SelectByUSBSN(SerialNo = 260100375)  returns 0xFFFFFFFF (0000ms, 1314ms total)
TA084 474:681 JLINK_GetFirmwareString(...) (0000ms, 1314ms total)
TA084 474:681 JLINK_GetHardwareVersion()  returns 0x18A88 (0000ms, 1314ms total)
TA084 474:681 JLINK_GetDLLVersion()  returns 61601 (0000ms, 1314ms total)
TA084 475:153 JLINK_ExecCommand("ProjectFile = C:\Users\raghu\Documents\Atmel Studio\7.0\Current\HummingBit_SPI_LED_ORB\HummingBit\jlink.config", ...).   returns 0x00 (0002ms, 1316ms total)
TA084 475:241 JLINK_ExecCommand("Device = ATSAMD10D14AM", ...).   returns 0x00 (0002ms, 1318ms total)
TA084 475:258 JLINK_ExecCommand("ProjectFile = C:\Users\raghu\Documents\Atmel Studio\7.0\Current\HummingBit_SPI_LED_ORB\HummingBit\jlink.config", ...).   returns 0x00 (0002ms, 1320ms total)
TA084 475:332 JLINK_ExecCommand("Device = ATSAMD10D14AM", ...).   returns 0x00 (0002ms, 1322ms total)
TA084 475:334 JLINK_TIF_Select(JLINKARM_TIF_SWD)  returns 0x00 (0000ms, 1322ms total)
TA084 475:334 JLINK_SetSpeed(4000) (0000ms, 1322ms total)
TA084 475:334 JLINK_ResetPullsRESET(OFF) (0000ms, 1322ms total)
TA084 475:334 JLINK_Connect()  returns 0xFFFFFEFD (0000ms, 1322ms total)
TA084 475:334 JLINK_ResetPullsRESET(ON) (0000ms, 1322ms total)
TA084 475:334 JLINK_ResetNoHalt() (0000ms, 1322ms total)
TA084 475:340 JLINK_GetHWStatus(...)  returns 0x00 (0000ms, 1322ms total)
TA084 484:444 JLINK_EMU_SelectByUSBSN(SerialNo = 260100375)  returns 0xFFFFFFFF (0000ms, 1322ms total)
TA084 484:444 JLINK_GetFirmwareString(...) (0000ms, 1322ms total)
TA084 484:444 JLINK_GetHardwareVersion()  returns 0x18A88 (0000ms, 1322ms total)
TA084 484:444 JLINK_GetDLLVersion()  returns 61601 (0000ms, 1322ms total)
TA084 484:878 JLINK_ExecCommand("ProjectFile = C:\Users\raghu\Documents\Atmel Studio\7.0\Current\HummingBit_SPI_LED_ORB\HummingBit\jlink.config", ...).   returns 0x00 (0003ms, 1325ms total)
TA084 484:974 JLINK_ExecCommand("Device = ATSAMD10D14AM", ...).   returns 0x00 (0002ms, 1327ms total)
TA084 484:992 JLINK_ExecCommand("ProjectFile = C:\Users\raghu\Documents\Atmel Studio\7.0\Current\HummingBit_SPI_LED_ORB\HummingBit\jlink.config", ...).   returns 0x00 (0002ms, 1329ms total)
TA084 485:063 JLINK_ExecCommand("Device = ATSAMD10D14AM", ...).   returns 0x00 (0002ms, 1331ms total)
TA084 485:065 JLINK_TIF_Select(JLINKARM_TIF_SWD)  returns 0x00 (0000ms, 1331ms total)
TA084 485:065 JLINK_SetSpeed(4000) (0000ms, 1331ms total)
TA084 485:065 JLINK_ResetPullsRESET(OFF) (0000ms, 1331ms total)
TA084 485:065 JLINK_Connect() >0x10B TIF>Found SW-DP with ID 0x0BC11477 >0x0D TIF> >0x28 TIF> >0x0D TIF> >0x28 TIF> >0x0D TIF> >0x28 TIF> >0x0D TIF> >0x28 TIF> >0x0D TIF> >0x21 TIF> >0x0D TIF> >0x28 TIF> >0x0D TIF> >0x28 TIF> >0x0D TIF> >0x28 TIF> >0x0D TIF> >0x21 TIF> >0x0D TIF> >0x21 TIF> >0x10B TIF>Found SW-DP with ID 0x0BC11477 >0x0D TIF> >0x28 TIF> >0x0D TIF> >0x28 TIF> >0x0D TIF> >0x28 TIF> >0x0D TIF> >0x28 TIF> >0x0D TIF> >0x21 TIF> >0x0D TIF> >0x28 TIF>
Using pre-configured AP[0] as AHB-AP to communicate with core >0x0D TIF> >0x28 TIF> >0x0D TIF> >0x21 TIF> >0x0D TIF> >0x21 TIF>AHB-AP ROM: 0x41003000 (Base addr. of first ROM table) >0x0D TIF> >0x28 TIF> >0x0D TIF> >0x28 TIF> >0x0D TIF> >0x28 TIF> >0x0D TIF> >0x21 TIF> >0x0D TIF> >0x21 TIF> >0x0D TIF> >0x28 TIF> >0x0D TIF> >0x21 TIF> >0x0D TIF> >0x21 TIF>CPUID reg: 0x410CC601. Implementer code: 0x41 (ARM)Found Cortex-M0 r0p1, Little endian. -- CPU_ReadMem(4 bytes @ 0xE000EDF0)
 -- CPU_ReadMem(4 bytes @ 0xE0002000) -- CPU_ReadMem(4 bytes @ 0xE000EDFC) -- CPU_ReadMem(4 bytes @ 0xE0001000) -- CPU_WriteMem(4 bytes @ 0xE0001000)CoreSight components:ROMTbl[0] @ 41003000 -- CPU_ReadMem(16 bytes @ 0x41003000) -- CPU_ReadMem(16 bytes @ 0xE00FFFF0) -- CPU_ReadMem(16 bytes @ 0xE00FFFE0)ROMTbl[0][0]: E00FF000, CID: B105100D, PID: 000BB4C0 ROM TableROMTbl[1] @ E00FF000 -- CPU_ReadMem(16 bytes @ 0xE00FF000) -- CPU_ReadMem(16 bytes @ 0xE000EFF0) -- CPU_ReadMem(16 bytes @ 0xE000EFE0)
ROMTbl[1][0]: E000E000, CID: B105E00D, PID: 000BB008 SCS -- CPU_ReadMem(16 bytes @ 0xE0001FF0) -- CPU_ReadMem(16 bytes @ 0xE0001FE0)ROMTbl[1][1]: E0001000, CID: B105E00D, PID: 000BB00A DWT -- CPU_ReadMem(16 bytes @ 0xE0002FF0) -- CPU_ReadMem(16 bytes @ 0xE0002FE0)ROMTbl[1][2]: E0002000, CID: B105E00D, PID: 000BB00B FPB -- CPU_ReadMem(16 bytes @ 0x41006FF0) -- CPU_ReadMem(16 bytes @ 0x41006FE0)ROMTbl[0][1]: 41006000, CID: B105900D, PID: 001BB932 MTB-M0+  returns 0x00 (0023ms, 1354ms total)
TA084 485:088 JLINK_Halt()  returns 0x00 (0002ms, 1356ms total)
TA084 485:091 JLINK_JTAG_GetDeviceID(DeviceIndex = 0)  returns 0x00 (0000ms, 1356ms total)
TA084 485:091 JLINK_ReadMemU32(0x41002018, 0x0001 Items, ...) -- CPU_ReadMem(4 bytes @ 0x41002018) - Data: 00 01 02 10  returns 0x01 (0000ms, 1356ms total)
T5074 485:100 JLINK_IsHalted()  returns TRUE (0000ms, 1356ms total)
T5074 485:100 JLINK_GetMOEs(...) -- CPU_ReadMem(4 bytes @ 0xE000ED30)  returns 0x01 (0000ms, 1356ms total)
T5074 485:100 JLINK_ReadReg(R15 (PC))  returns 0x00001AB8 (0000ms, 1356ms total)
TA084 485:125 JLINK_BeginDownload(Flags = 0x00) (0000ms, 1356ms total)
TA084 485:125 JLINK_WriteMem(0x00000800, 0x32B0 Bytes, ...) - Data: 50 07 00 20 CD 32 00 00 C9 32 00 00 C9 32 00 00 ...  returns 0x32B0 (0000ms, 1356ms total)
TA084 485:125 JLINK_WriteMem(0x00003AB0, 0x0070 Bytes, ...) - Data: 40 1F 00 00 08 00 00 00 08 01 01 01 10 00 00 20 ...  returns 0x70 (0000ms, 1356ms total)
TA084 485:139 JLINK_EndDownload() -- CPU_ReadMem(4 bytes @ 0x41006004) -- -------------------------------------- -- Start of determining dirty areas in flash cache -- End of determining dirty areas -- Start of preparing flash programming -- Calculating RAM usage -- RAM usage = 4064 Bytes -- Preserving CPU registers -- Preparing memory -- Determining CPU clock frequency -- CPU frequency = 10689 kHz -- Preparing target -- Preserving target RAM temporarily used for programming -- Downloading RAMCode
 -- Checking target RAM & preparing RAMCode -- End of preparing flash programming -- CPU is running at 10689 kHz. -- Start of comparing flash -- CRC check was estimated as fastest method -- Comparing range 0x0800 - 0x3BFF (52 Sectors, 13 KB), using multi-block CRC calculation -- All CRCs match -- Comparing range 0x0800 - 0x3BFF (52 Sectors, 13 KB), using alternative multi-block CRC calculation -- All CRCs match -- End of comparing flash -- Start of erasing sectors -- End of erasing sectors
 -- Start of flash programming -- End of flash programming -- Start of verifying flash -- End of verifying flash -- Start of restoring -- Restoring RAMCode -- Restoring target memory -- Restore target -- Restore memory -- Restoring CPU registers -- End of restoring -- Flash download skipped. Flash contents already match -- Flash download skipped. Flash contents already match  returns 0x00 (0143ms, 1499ms total)
T5074 485:303 JLINK_IsHalted()  returns TRUE (0000ms, 1499ms total)
T8DA8 485:386 JLINK_Halt()  returns 0x00 (0000ms, 1499ms total)
T8DA8 485:386 JLINK_ReadReg(R15 (PC))  returns 0x00001AB8 (0000ms, 1499ms total)
T8DA8 485:386 JLINK_ReadReg(R13 (SP))  returns 0x20000714 (0000ms, 1499ms total)
T8DA8 485:391 JLINK_ReadMemHW(0x00001AB8, 0x0004 Bytes, ...) -- CPU_ReadMem(4 bytes @ 0x00001AB8) - Data: 18 43 08 61  returns 0x00 (0001ms, 1500ms total)
T8DA8 485:392 JLINK_ReadReg(R0)  returns 0x00000008 (0000ms, 1500ms total)
T8DA8 485:392 JLINK_ReadReg(R1)  returns 0x42002000 (0000ms, 1500ms total)
T8DA8 485:392 JLINK_ReadReg(R2)  returns 0x0000001F (0000ms, 1500ms total)
T8DA8 485:392 JLINK_ReadReg(R3)  returns 0x00001800 (0000ms, 1500ms total)
T8DA8 485:392 JLINK_ReadReg(R4)  returns 0x00000002 (0000ms, 1500ms total)
T8DA8 485:392 JLINK_ReadReg(R5)  returns 0x200002EC (0000ms, 1500ms total)
T8DA8 485:392 JLINK_ReadReg(R6)  returns 0x00001AA5 (0000ms, 1500ms total)
T8DA8 485:392 JLINK_ReadReg(R7)  returns 0x00003A10 (0000ms, 1500ms total)
T8DA8 485:392 JLINK_ReadReg(R8)  returns 0xFDD763FC (0000ms, 1500ms total)
T8DA8 485:392 JLINK_ReadReg(R9)  returns 0xF33EBF71 (0000ms, 1500ms total)
T8DA8 485:392 JLINK_ReadReg(R10)  returns 0x8BDE6EB0 (0000ms, 1500ms total)
T8DA8 485:392 JLINK_ReadReg(R11)  returns 0x79BEBB26 (0000ms, 1500ms total)
T8DA8 485:392 JLINK_ReadReg(R12)  returns 0x00000000 (0000ms, 1500ms total)
T8DA8 485:392 JLINK_ReadReg(R13 (SP))  returns 0x20000714 (0000ms, 1500ms total)
T8DA8 485:392 JLINK_ReadReg(R14)  returns 0x000019FF (0000ms, 1500ms total)
T8DA8 485:392 JLINK_ReadReg(R15 (PC))  returns 0x00001AB8 (0000ms, 1500ms total)
T8DA8 485:392 JLINK_ReadReg(XPSR)  returns 0x21000000 (0000ms, 1500ms total)
T8DA8 485:392 JLINK_ReadReg(MSP)  returns 0x20000714 (0000ms, 1500ms total)
T8DA8 485:392 JLINK_ReadReg(PSP)  returns 0xE5F7D448 (0000ms, 1500ms total)
T8DA8 485:392 JLINK_ReadReg(PRIMASK)  returns 0x00000000 (0000ms, 1500ms total)
T8DA8 485:392 JLINK_ReadReg(BASEPRI)  returns 0x00000000 (0000ms, 1500ms total)
T8DA8 485:392 JLINK_ReadReg(FAULTMASK)  returns 0x00000000 (0000ms, 1500ms total)
T8DA8 485:392 JLINK_ReadReg(CONTROL)  returns 0x00000000 (0000ms, 1500ms total)
T8DA8 485:392 JLINK_ReadMemHW(0x00001AB8, 0x0002 Bytes, ...) -- CPU_ReadMem(2 bytes @ 0x00001AB8) - Data: 18 43  returns 0x00 (0001ms, 1501ms total)
T8DA8 485:427 JLINK_ReadReg(R0)  returns 0x00000008 (0000ms, 1501ms total)
T8DA8 485:427 JLINK_ReadReg(R1)  returns 0x42002000 (0000ms, 1501ms total)
T8DA8 485:427 JLINK_ReadReg(R2)  returns 0x0000001F (0000ms, 1501ms total)
T8DA8 485:427 JLINK_ReadReg(R3)  returns 0x00001800 (0000ms, 1501ms total)
T8DA8 485:427 JLINK_ReadReg(R4)  returns 0x00000002 (0000ms, 1501ms total)
T8DA8 485:427 JLINK_ReadReg(R5)  returns 0x200002EC (0000ms, 1501ms total)
T8DA8 485:427 JLINK_ReadReg(R6)  returns 0x00001AA5 (0000ms, 1501ms total)
T8DA8 485:427 JLINK_ReadReg(R7)  returns 0x00003A10 (0000ms, 1501ms total)
T8DA8 485:427 JLINK_ReadReg(R8)  returns 0xFDD763FC (0000ms, 1501ms total)
T8DA8 485:427 JLINK_ReadReg(R9)  returns 0xF33EBF71 (0000ms, 1501ms total)
T8DA8 485:427 JLINK_ReadReg(R10)  returns 0x8BDE6EB0 (0000ms, 1501ms total)
T8DA8 485:427 JLINK_ReadReg(R11)  returns 0x79BEBB26 (0000ms, 1501ms total)
T8DA8 485:427 JLINK_ReadReg(R12)  returns 0x00000000 (0000ms, 1501ms total)
T8DA8 485:427 JLINK_ReadReg(R13 (SP))  returns 0x20000714 (0000ms, 1501ms total)
T8DA8 485:427 JLINK_ReadReg(R14)  returns 0x000019FF (0000ms, 1501ms total)
T8DA8 485:427 JLINK_ReadReg(R15 (PC))  returns 0x00001AB8 (0001ms, 1502ms total)
T8DA8 485:428 JLINK_ReadReg(XPSR)  returns 0x21000000 (0000ms, 1502ms total)
T8DA8 485:428 JLINK_ReadReg(MSP)  returns 0x20000714 (0000ms, 1502ms total)
T8DA8 485:428 JLINK_ReadReg(PSP)  returns 0xE5F7D448 (0000ms, 1502ms total)
T8DA8 485:428 JLINK_ReadReg(PRIMASK)  returns 0x00000000 (0000ms, 1502ms total)
T8DA8 485:428 JLINK_ReadReg(BASEPRI)  returns 0x00000000 (0000ms, 1502ms total)
T8DA8 485:428 JLINK_ReadReg(FAULTMASK)  returns 0x00000000 (0000ms, 1502ms total)
T8DA8 485:428 JLINK_ReadReg(CONTROL)  returns 0x00000000 (0000ms, 1502ms total)
T8DA8 485:440 JLINK_ReadMemHW(0x00001AB8, 0x0004 Bytes, ...) -- CPU_ReadMem(4 bytes @ 0x00001AB8) - Data: 18 43 08 61  returns 0x00 (0001ms, 1503ms total)
T8DA8 485:473 JLINK_ReadMemHW(0x00001C36, 0x0002 Bytes, ...) -- CPU_ReadMem(2 bytes @ 0x00001C36) - Data: 36 4B  returns 0x00 (0001ms, 1504ms total)
T8DA8 485:474 JLINK_ReadMemHW(0x00001D10, 0x0004 Bytes, ...) -- CPU_ReadMem(4 bytes @ 0x00001D10) - Data: 98 00 00 20  returns 0x00 (0000ms, 1504ms total)
T8DA8 485:475 JLINK_ReadMemHW(0x00001CB4, 0x0002 Bytes, ...) -- CPU_ReadMem(2 bytes @ 0x00001CB4) - Data: 1C 4B  returns 0x00 (0000ms, 1504ms total)
TA084 485:502 JLINK_GetNumBPUnits(Type = 0xFFFFFF02)  returns 0x04 (0000ms, 1504ms total)
TA084 485:502 JLINK_SetBPEx(Addr = 0x00001CB4, Type = 0xFFFFFFF2)  returns 0x00000004 (0000ms, 1504ms total)
TA084 485:502 JLINK_GetBPInfo(BPHandle = 4)  returns 0x00 (0000ms, 1504ms total)
T5074 485:503 JLINK_IsHalted()  returns TRUE (0000ms, 1504ms total)
T8DA8 485:518 JLINK_ReadMemHW(0x00001C36, 0x0002 Bytes, ...) -- CPU_ReadMem(2 bytes @ 0x00001C36) - Data: 36 4B  returns 0x00 (0000ms, 1504ms total)
T8DA8 485:518 JLINK_ReadMemHW(0x00001D10, 0x0004 Bytes, ...) -- CPU_ReadMem(4 bytes @ 0x00001D10) - Data: 98 00 00 20  returns 0x00 (0001ms, 1505ms total)
T8DA8 485:519 JLINK_ReadMemHW(0x00001CBC, 0x0002 Bytes, ...) -- CPU_ReadMem(2 bytes @ 0x00001CBC) - Data: FF 2C  returns 0x00 (0000ms, 1505ms total)
TA084 485:521 JLINK_SetBPEx(Addr = 0x00001CBC, Type = 0xFFFFFFF2)  returns 0x00000005 (0000ms, 1505ms total)
TA084 485:521 JLINK_GetBPInfo(BPHandle = 5)  returns 0x00 (0000ms, 1505ms total)
T8DA8 485:531 JLINK_Reset() -- CPU_ReadMem(4 bytes @ 0x20000000) -- CPU_WriteMem(4 bytes @ 0x20000000) -- CPU_ReadMem(4 bytes @ 0xE000EDFC) -- CPU_WriteMem(4 bytes @ 0xE000EDFC) -- CPU_WriteMem(4 bytes @ 0xE000ED0C) -- CPU_ReadMem(4 bytes @ 0xE000EDF0) -- CPU_ReadMem(4 bytes @ 0x41002100) -- CPU is running -- CPU_WriteMem(4 bytes @ 0xE000EDFC) -- CPU_WriteMem(4 bytes @ 0xE0002000) -- CPU_ReadMem(4 bytes @ 0xE000EDFC) -- CPU_ReadMem(4 bytes @ 0xE0001000) -- CPU_WriteMem(4 bytes @ 0xE0001000)
 (0007ms, 1512ms total)
T5074 485:538 JLINK_IsHalted()  returns TRUE (0000ms, 1512ms total)
T5074 485:539 JLINK_GetMOEs(...) -- CPU_ReadMem(4 bytes @ 0xE000ED30)  returns 0x01 (0001ms, 1513ms total)
T5074 485:540 JLINK_ReadReg(R15 (PC))  returns 0x000000F0 (0000ms, 1513ms total)
T8DA8 485:548 JLINK_ReadReg(R15 (PC))  returns 0x000000F0 (0000ms, 1513ms total)
T8DA8 485:548 JLINK_ReadReg(R13 (SP))  returns 0x20000440 (0000ms, 1513ms total)
T8DA8 485:548 JLINK_ReadMemHW(0x000000F0, 0x0004 Bytes, ...) -- CPU_ReadMem(4 bytes @ 0x000000F0) - Data: 1D 48 1E 49  returns 0x00 (0001ms, 1514ms total)
T8DA8 485:549 JLINK_ReadReg(R0)  returns 0x00000000 (0000ms, 1514ms total)
T8DA8 485:549 JLINK_ReadReg(R1)  returns 0x41004004 (0000ms, 1514ms total)
T8DA8 485:549 JLINK_ReadReg(R2)  returns 0x00000100 (0000ms, 1514ms total)
T8DA8 485:549 JLINK_ReadReg(R3)  returns 0x00000000 (0000ms, 1514ms total)
T8DA8 485:549 JLINK_ReadReg(R4)  returns 0x20000380 (0000ms, 1514ms total)
T8DA8 485:549 JLINK_ReadReg(R5)  returns 0x200004B0 (0000ms, 1514ms total)
T8DA8 485:549 JLINK_ReadReg(R6)  returns 0x00000080 (0000ms, 1514ms total)
T8DA8 485:549 JLINK_ReadReg(R7)  returns 0x20000165 (0000ms, 1514ms total)
T8DA8 485:549 JLINK_ReadReg(R8)  returns 0xFDD763FC (0000ms, 1514ms total)
T8DA8 485:549 JLINK_ReadReg(R9)  returns 0xF33EBF71 (0000ms, 1514ms total)
T8DA8 485:549 JLINK_ReadReg(R10)  returns 0x8BDE6EB0 (0001ms, 1515ms total)
T8DA8 485:550 JLINK_ReadReg(R11)  returns 0x79BEBB26 (0000ms, 1515ms total)
T8DA8 485:550 JLINK_ReadReg(R12)  returns 0x00000000 (0000ms, 1515ms total)
T8DA8 485:550 JLINK_ReadReg(R13 (SP))  returns 0x20000440 (0000ms, 1515ms total)
T8DA8 485:550 JLINK_ReadReg(R14)  returns 0x2000015D (0000ms, 1515ms total)
T8DA8 485:550 JLINK_ReadReg(R15 (PC))  returns 0x000000F0 (0000ms, 1515ms total)
T8DA8 485:550 JLINK_ReadReg(XPSR)  returns 0x41000000 (0000ms, 1515ms total)
T8DA8 485:550 JLINK_ReadReg(MSP)  returns 0x20000440 (0000ms, 1515ms total)
T8DA8 485:550 JLINK_ReadReg(PSP)  returns 0xE5F7D448 (0000ms, 1515ms total)
T8DA8 485:550 JLINK_ReadReg(PRIMASK)  returns 0x00000000 (0000ms, 1515ms total)
T8DA8 485:550 JLINK_ReadReg(BASEPRI)  returns 0x00000000 (0000ms, 1515ms total)
T8DA8 485:550 JLINK_ReadReg(FAULTMASK)  returns 0x00000000 (0000ms, 1515ms total)
T8DA8 485:550 JLINK_ReadReg(CONTROL)  returns 0x00000000 (0000ms, 1515ms total)
T8DA8 485:550 JLINK_ReadMemHW(0x000000F0, 0x0002 Bytes, ...) -- CPU_ReadMem(2 bytes @ 0x000000F0) - Data: 1D 48  returns 0x00 (0001ms, 1516ms total)
T8DA8 485:565 JLINK_ReadMem (0x2000015C, 0x0004 Bytes, ...) -- CPU_ReadMem(64 bytes @ 0x20000140) -- Updating C cache (64 bytes @ 0x20000140) -- Read from C cache (4 bytes @ 0x2000015C) - Data: 00 00 00 00  returns 0x00 (0001ms, 1517ms total)
T8DA8 485:566 JLINK_ReadMem (0x20000134, 0x0002 Bytes, ...) -- CPU_ReadMem(64 bytes @ 0x20000100) -- Updating C cache (64 bytes @ 0x20000100) -- Read from C cache (2 bytes @ 0x20000134) - Data: 8F 8E  returns 0x00 (0001ms, 1518ms total)
T8DA8 485:567 JLINK_ReadMem (0x20000136, 0x0002 Bytes, ...) -- Read from C cache (2 bytes @ 0x20000136) - Data: 8D 8C  returns 0x00 (0000ms, 1518ms total)
T8DA8 485:568 JLINK_ReadMem (0x20000138, 0x0002 Bytes, ...) -- Read from C cache (2 bytes @ 0x20000138) - Data: 00 00  returns 0x00 (0000ms, 1518ms total)
T8DA8 485:568 JLINK_ReadMem (0x2000013A, 0x0002 Bytes, ...) -- Read from C cache (2 bytes @ 0x2000013A) - Data: 00 00  returns 0x00 (0000ms, 1518ms total)
T8DA8 485:568 JLINK_ReadMem (0x2000013C, 0x0002 Bytes, ...) -- Read from C cache (2 bytes @ 0x2000013C) - Data: 00 00  returns 0x00 (0000ms, 1518ms total)
T8DA8 485:569 JLINK_ReadMem (0x2000013E, 0x0002 Bytes, ...) -- Read from C cache (2 bytes @ 0x2000013E) - Data: 00 00  returns 0x00 (0000ms, 1518ms total)
T8DA8 485:569 JLINK_ReadMem (0x20000140, 0x0002 Bytes, ...) -- Read from C cache (2 bytes @ 0x20000140) - Data: 00 00  returns 0x00 (0000ms, 1518ms total)
T8DA8 485:570 JLINK_ReadMem (0x20000142, 0x0002 Bytes, ...) -- Read from C cache (2 bytes @ 0x20000142) - Data: 00 00  returns 0x00 (0000ms, 1518ms total)
T8DA8 485:570 JLINK_ReadMem (0x20000144, 0x0002 Bytes, ...) -- Read from C cache (2 bytes @ 0x20000144) - Data: 00 00  returns 0x00 (0000ms, 1518ms total)
T8DA8 485:570 JLINK_ReadMem (0x20000146, 0x0002 Bytes, ...) -- Read from C cache (2 bytes @ 0x20000146) - Data: 00 00  returns 0x00 (0000ms, 1518ms total)
T8DA8 485:571 JLINK_ReadMem (0x20000148, 0x0002 Bytes, ...) -- Read from C cache (2 bytes @ 0x20000148) - Data: 00 00  returns 0x00 (0000ms, 1518ms total)
T8DA8 485:571 JLINK_ReadMem (0x2000014A, 0x0002 Bytes, ...) -- Read from C cache (2 bytes @ 0x2000014A) - Data: 00 00  returns 0x00 (0000ms, 1518ms total)
T8DA8 485:571 JLINK_ReadMem (0x2000014C, 0x0002 Bytes, ...) -- Read from C cache (2 bytes @ 0x2000014C) - Data: 00 00  returns 0x00 (0000ms, 1518ms total)
T8DA8 485:572 JLINK_ReadMem (0x2000014E, 0x0002 Bytes, ...) -- Read from C cache (2 bytes @ 0x2000014E) - Data: 00 00  returns 0x00 (0000ms, 1518ms total)
T8DA8 485:572 JLINK_ReadMem (0x20000150, 0x0002 Bytes, ...) -- Read from C cache (2 bytes @ 0x20000150) - Data: 00 00  returns 0x00 (0000ms, 1518ms total)
T8DA8 485:572 JLINK_ReadMem (0x20000152, 0x0002 Bytes, ...) -- Read from C cache (2 bytes @ 0x20000152) - Data: 00 00  returns 0x00 (0001ms, 1519ms total)
T8DA8 485:573 JLINK_ReadMem (0x20000154, 0x0002 Bytes, ...) -- Read from C cache (2 bytes @ 0x20000154) - Data: 00 00  returns 0x00 (0000ms, 1519ms total)
T8DA8 485:573 JLINK_ReadMem (0x20000156, 0x0002 Bytes, ...) -- Read from C cache (2 bytes @ 0x20000156) - Data: 00 00  returns 0x00 (0000ms, 1519ms total)
T8DA8 485:573 JLINK_ReadMem (0x20000158, 0x0002 Bytes, ...) -- Read from C cache (2 bytes @ 0x20000158) - Data: 00 00  returns 0x00 (0000ms, 1519ms total)
T8DA8 485:574 JLINK_ReadMem (0x2000015A, 0x0002 Bytes, ...) -- Read from C cache (2 bytes @ 0x2000015A) - Data: 00 00  returns 0x00 (0000ms, 1519ms total)
T8DA8 485:574 JLINK_ReadMem (0x2000015C, 0x0004 Bytes, ...) -- Read from C cache (4 bytes @ 0x2000015C) - Data: 00 00 00 00  returns 0x00 (0000ms, 1519ms total)
T8DA8 485:575 JLINK_ReadMem (0x20000134, 0x0002 Bytes, ...) -- Read from C cache (2 bytes @ 0x20000134) - Data: 8F 8E  returns 0x00 (0000ms, 1519ms total)
T8DA8 485:575 JLINK_ReadMem (0x20000136, 0x0002 Bytes, ...) -- Read from C cache (2 bytes @ 0x20000136) - Data: 8D 8C  returns 0x00 (0000ms, 1519ms total)
T8DA8 485:575 JLINK_ReadMem (0x20000138, 0x0002 Bytes, ...) -- Read from C cache (2 bytes @ 0x20000138) - Data: 00 00  returns 0x00 (0000ms, 1519ms total)
T8DA8 485:575 JLINK_ReadMem (0x2000013A, 0x0002 Bytes, ...) -- Read from C cache (2 bytes @ 0x2000013A) - Data: 00 00  returns 0x00 (0001ms, 1520ms total)
T8DA8 485:576 JLINK_ReadMem (0x2000013C, 0x0002 Bytes, ...) -- Read from C cache (2 bytes @ 0x2000013C) - Data: 00 00  returns 0x00 (0000ms, 1520ms total)
T8DA8 485:576 JLINK_ReadMem (0x2000013E, 0x0002 Bytes, ...) -- Read from C cache (2 bytes @ 0x2000013E) - Data: 00 00  returns 0x00 (0000ms, 1520ms total)
T8DA8 485:576 JLINK_ReadMem (0x20000140, 0x0002 Bytes, ...) -- Read from C cache (2 bytes @ 0x20000140) - Data: 00 00  returns 0x00 (0000ms, 1520ms total)
